! AWR Design Environment (12629) Mon Dec  5 14:20:58 2022
! Document = 'Match'
! nPorts: 4, nXvals: 41

# MHz S DB R 50
!Freq DBS11 AngS11 DBS12 AngS12 DBS13 AngS13 DBS14 AngS14 
!	DBS21 AngS21 DBS22 AngS22 DBS23 AngS23 DBS24 AngS24 
!	DBS31 AngS31 DBS32 AngS32 DBS33 AngS33 DBS34 AngS34 
!	DBS41 AngS41 DBS42 AngS42 DBS43 AngS43 DBS44 AngS44 
100 -7.3161812 -155.44634 -800 0 -800 0 -800 0 
	-800 0 -14.479603 173.91679 -800 0 -800 0 
	-800 0 -800 0 -16.004315 58.288062 -800 0 
	-800 0 -800 0 -800 0 -12.263315 46.074877 
110 -6.2688726 -162.99882 -800 0 -800 0 -800 0 
	-800 0 -13.599931 164.22027 -800 0 -800 0 
	-800 0 -800 0 -15.150953 55.158948 -800 0 
	-800 0 -800 0 -800 0 -11.412692 41.786037 
120 -5.279183 -170.91418 -800 0 -800 0 -800 0 
	-800 0 -12.787313 154.49698 -800 0 -800 0 
	-800 0 -800 0 -14.368337 52.041609 -800 0 
	-800 0 -800 0 -800 0 -10.635133 37.527157 
130 -4.3412411 -179.26098 -800 0 -800 0 -800 0 
	-800 0 -12.030188 144.74372 -800 0 -800 0 
	-800 0 -800 0 -13.645181 48.937027 -800 0 
	-800 0 -800 0 -800 0 -9.9197679 33.301165 
140 -3.4549099 171.88546 -800 0 -800 0 -800 0 
	-800 0 -11.319576 134.9571 -800 0 -800 0 
	-800 0 -800 0 -12.972784 45.846175 -800 0 
	-800 0 -800 0 -800 0 -9.2582911 29.111055 
150 -2.6262802 162.44769 -800 0 -800 0 -800 0 
	-800 0 -10.648371 125.13347 -800 0 -800 0 
	-800 0 -800 0 -12.344314 42.770016 -800 0 
	-800 0 -800 0 -800 0 -8.6442394 24.959884 
160 -1.8684487 152.35612 -800 0 -800 0 -800 0 
	-800 0 -10.010864 115.26892 -800 0 -800 0 
	-800 0 -800 0 -11.754327 39.709513 -800 0 
	-800 0 -800 0 -800 0 -8.0724972 20.85077 
170 -1.2020224 141.56616 -800 0 -800 0 -800 0 
	-800 0 -9.4024102 105.35926 -800 0 -800 0 
	-800 0 -800 0 -11.198425 36.665626 -800 0 
	-800 0 -800 0 -800 0 -7.538952 16.786874 
180 -0.65440512 130.08278 -800 0 -800 0 -800 0 
	-800 0 -8.8191995 95.399937 -800 0 -800 0 
	-800 0 -800 0 -10.673018 33.639318 -800 0 
	-800 0 -800 0 -800 0 -7.0402452 12.771387 
190 -0.256686 117.98754 -800 0 -800 0 -800 0 
	-800 0 -8.2580859 85.38608 -800 0 -800 0 
	-800 0 -800 0 -10.175147 30.63156 -800 0 
	-800 0 -800 0 -800 0 -6.5735901 8.8075019 
200 -0.037522048 105.45516 -800 0 -800 0 -800 0 
	-800 0 -7.7164683 75.312411 -800 0 -800 0 
	-800 0 -800 0 -9.7023472 27.64333 -800 0 
	-800 0 -800 0 -800 0 -6.1366357 4.8983885 
210 -0.015275233 92.742988 -800 0 -800 0 -800 0 
	-800 0 -7.1922029 65.173244 -800 0 -800 0 
	-800 0 -800 0 -9.2525539 24.675614 -800 0 
	-800 0 -800 0 -800 0 -5.7273646 1.047158 
220 -0.19192097 80.146392 -800 0 -800 0 -800 0 
	-800 0 -6.6835402 54.962455 -800 0 -800 0 
	-800 0 -800 0 -8.8240205 21.729415 -800 0 
	-800 0 -800 0 -800 0 -5.3440142 -2.7431726 
230 -0.55234541 67.936016 -800 0 -800 0 -800 0 
	-800 0 -6.189082 44.673463 -800 0 -800 0 
	-800 0 -800 0 -8.4152597 18.805745 -800 0 
	-800 0 -800 0 -800 0 -4.9850183 -6.4697173 
240 -1.0694886 56.307006 -800 0 -800 0 -800 0 
	-800 0 -5.7077528 34.299221 -800 0 -800 0 
	-800 0 -800 0 -8.0249951 15.905628 -800 0 
	-800 0 -800 0 -800 0 -4.648961 -10.129758 
250 -1.7121739 45.360826 -800 0 -800 0 -800 0 
	-800 0 -5.238784 23.832223 -800 0 -800 0 
	-800 0 -800 0 -7.6521231 13.030099 -800 0 
	-800 0 -800 0 -800 0 -4.3345429 -13.720782 
260 -2.4518091 35.117187 -800 0 -800 0 -800 0 
	-800 0 -4.7817088 13.264524 -800 0 -800 0 
	-800 0 -800 0 -7.2956814 10.180203 -800 0 
	-800 0 -800 0 -800 0 -4.0405552 -17.240508 
270 -3.2661551 25.540129 -800 0 -800 0 -800 0 
	-800 0 -4.3363653 2.5878029 -800 0 -800 0 
	-800 0 -800 0 -6.9548239 7.356988 -800 0 
	-800 0 -800 0 -800 0 -3.7658613 -20.68692 
280 -4.1404709 16.56383 -800 0 -800 0 -800 0 
	-800 0 -3.9029079 -8.2065541 -800 0 -800 0 
	-800 0 -800 0 -6.6288002 4.561504 -800 0 
	-800 0 -800 0 -800 0 -3.5093826 -24.058285 
290 -5.0671834 8.1115187 -800 0 -800 0 -800 0 
	-800 0 -3.4818242 -19.127305 -800 0 -800 0 
	-800 0 -800 0 -6.3169381 1.7947969 -800 0 
	-800 0 -800 0 -800 0 -3.2700895 -27.353172 
300 -6.0451092 0.10683289 -800 0 -800 0 -800 0 
	-800 0 -3.0739562 -30.183144 -800 0 -800 0 
	-800 0 -800 0 -6.0186298 -0.94209661 -800 0 
	-800 0 -800 0 -800 0 -3.0469949 -30.570457 
310 -7.0788661 -7.5204949 -800 0 -800 0 -800 0 
	-800 0 -2.680523 -41.382421 -800 0 -800 0 
	-800 0 -800 0 -5.73332 -3.6481557 -800 0 
	-800 0 -800 0 -800 0 -2.8391502 -33.709329 
320 -8.1788283 -14.832504 -800 0 -800 0 -800 0 
	-800 0 -2.3031413 -52.732753 -800 0 -800 0 
	-800 0 -800 0 -5.4604968 -6.3223816 -800 0 
	-800 0 -800 0 -800 0 -2.6456434 -36.769286 
330 -9.3619042 -21.882802 -800 0 -800 0 -800 0 
	-800 0 -1.9438394 -64.24055 -800 0 -800 0 
	-800 0 -800 0 -5.1996832 -8.9638046 -800 0 
	-800 0 -800 0 -800 0 -2.4655976 -39.750129 
340 -10.65355 -28.717285 -800 0 -800 0 -800 0 
	-800 0 -1.6050568 -75.910416 -800 0 -800 0 
	-800 0 -800 0 -4.9504308 -11.571491 -800 0 
	-800 0 -800 0 -800 0 -2.2981711 -42.651944 
350 -12.091881 -35.375207 -800 0 -800 0 -800 0 
	-800 0 -1.2896241 -87.744476 -800 0 -800 0 
	-800 0 -800 0 -4.7123146 -14.144549 -800 0 
	-800 0 -800 0 -800 0 -2.1425572 -45.47509 
360 -13.735882 -41.890308 -800 0 -800 0 -800 0 
	-800 0 -1.0007129 -99.741622 -800 0 -800 0 
	-800 0 -800 0 -4.4849284 -16.682137 -800 0 
	-800 0 -800 0 -800 0 -1.997985 -48.220175 
370 -15.682812 -48.291884 -800 0 -800 0 -800 0 
	-800 0 -0.74174932 -111.89677 -800 0 -800 0 
	-800 0 -800 0 -4.2678819 -19.183468 -800 0 
	-800 0 -800 0 -800 0 -1.8637195 -50.888037 
380 -18.109854 -54.605735 -800 0 -800 0 -800 0 
	-800 0 -0.51628557 -124.20018 -800 0 -800 0 
	-800 0 -800 0 -4.0607974 -21.647817 -800 0 
	-800 0 -800 0 -800 0 -1.739062 -53.479718 
390 -21.395683 -60.854998 -800 0 -800 0 -800 0 
	-800 0 -0.32783006 -136.63702 -800 0 -800 0 
	-800 0 -800 0 -3.8633081 -24.074522 -800 0 
	-800 0 -800 0 -800 0 -1.6233502 -55.996441 
400 -26.627392 -67.060878 -800 0 -800 0 -800 0 
	-800 0 -0.17964357 -149.18716 -800 0 -800 0 
	-800 0 -800 0 -3.6750566 -26.462994 -800 0 
	-800 0 -800 0 -800 0 -1.5159579 -58.439586 
410 -41.477003 -73.243299 -800 0 -800 0 -800 0 
	-800 0 -0.074518398 -161.82553 -800 0 -800 0 
	-800 0 -800 0 -3.4956936 -28.812715 -800 0 
	-800 0 -800 0 -800 0 -1.416295 -60.810664 
420 -30.547101 100.5785 -800 0 -800 0 -800 0 
	-800 0 -0.014565648 -174.52278 -800 0 -800 0 
	-800 0 -800 0 -3.3248772 -31.123245 -800 0 
	-800 0 -800 0 -800 0 -1.3238064 -63.111299 
430 -23.34508 94.385412 -800 0 -800 0 -800 0 
	-800 0 -0.0010399804 172.75339 -800 0 -800 0 
	-800 0 -800 0 -3.1622724 -33.394219 -800 0 
	-800 0 -800 0 -800 0 -1.2379717 -65.343201 
440 -19.42213 88.157883 -800 0 -800 0 -800 0 
	-800 0 -0.034229684 160.03669 -800 0 -800 0 
	-800 0 -800 0 -3.0075509 -35.625352 -800 0 
	-800 0 -800 0 -800 0 -1.1583036 -67.508151 
450 -16.682738 81.875352 -800 0 -800 0 -800 0 
	-800 0 -0.1134308 147.36046 -800 0 -800 0 
	-800 0 -800 0 -2.8603913 -37.816436 -800 0 
	-800 0 -800 0 -800 0 -1.0843474 -69.607981 
460 -14.552595 75.515623 -800 0 -800 0 -800 0 
	-800 0 -0.23700991 134.75593 -800 0 -800 0 
	-800 0 -800 0 -2.7204786 -39.967342 -800 0 
	-800 0 -800 0 -800 0 -1.0156789 -71.644556 
470 -12.789796 69.054171 -800 0 -800 0 -800 0 
	-800 0 -0.40254452 122.25077 -800 0 -800 0 
	-800 0 -800 0 -2.5875049 -42.078016 -800 0 
	-800 0 -800 0 -800 0 -0.95190359 -73.619762 
480 -11.269389 62.463358 -800 0 -800 0 -800 0 
	-800 0 -0.60701778 109.86803 -800 0 -800 0 
	-800 0 -800 0 -2.4611694 -44.148477 -800 0 
	-800 0 -800 0 -800 0 -0.892655 -75.535491 
490 -9.9184816 55.711536 -800 0 -800 0 -800 0 
	-800 0 -0.84703811 97.625609 -800 0 -800 0 
	-800 0 -800 0 -2.3411787 -46.178815 -800 0 
	-800 0 -800 0 -800 0 -0.83759307 -77.393634 
500 -8.6911004 48.762031 -800 0 -800 0 -800 0 
	-800 0 -1.1190555 85.536164 -800 0 -800 0 
	-800 0 -800 0 -2.227247 -48.169191 -800 0 
	-800 0 -800 0 -800 0 -0.78640271 -79.196063 
